;$FILEVERSION=1.1
;$STARTTIME=42530.920643588
;
;   C:\Files\FabLab\CAN-Intrusion\mit.trc
;
;   Start time: 09.06.2016 22:05:43.606.0
;   Generated by PCAN-View v4.0.28.419
;
;   Message Number
;   |         Time Offset (ms)
;   |         |        Type
;   |         |        |        ID (hex)
;   |         |        |        |     Data Length
;   |         |        |        |     |   Data Bytes (hex) ...
;   |         |        |        |     |   |
;---+--   ----+----  --+--  ----+---  +  -+ -- -- -- -- -- -- --
     1)       698.9  Warng  FFFFFFFF  4  00 00 00 08  BUSHEAVY 
     2)      3688.4  Rx         07ED  0  RTR
     3)      3739.8  Rx         07EC  0  
     4)      3758.3  Rx     000007ED  0  
     5)      4162.9  Rx     00000000  3  82 00 01 
     6)      4165.2  Rx     000007EC  0  
     7)      4166.9  Rx     000007EA  8  01 01 3F 04 DC 05 00 00 
     8)      4168.4  Rx     000007E9  8  01 01 02 00 DC 05 00 00 
     9)      4169.8  Rx     000007EA  8  01 02 2D 04 98 05 00 00 
    10)      4171.3  Rx     000007A0  8  64 0A 0D 00 00 00 00 00 
    11)      4212.8  Rx     00000070  8  33 05 16 09 06 10 00 00 
    12)      4241.9  Rx     00000060  8  08 00 00 00 00 00 00 00 
    13)      4242.5  Rx         07EC  0  
    14)      4265.8  Rx     000007EA  8  01 02 2D 04 98 05 00 00 
    15)      4322.2  Rx     00000060  8  10 00 00 00 01 00 00 00 
    16)      4365.7  Rx     000007EA  8  01 02 2D 04 98 05 00 00 
    17)      4402.3  Rx     00000060  8  18 00 00 00 02 00 00 00 
    18)      4404.5  Rx     00000000  3  01 01 01 
    19)      4405.9  Rx     00000080  8  07 01 00 00 00 00 00 00 
    20)      4465.6  Rx     000007EA  8  01 02 2D 04 98 05 00 00 
    21)      4482.5  Rx     00000060  8  20 00 00 00 07 00 00 00 
    22)      4563.3  Rx     00000060  8  28 00 00 00 0C 00 00 00 
    23)      4566.7  Rx     000007EA  8  01 02 2D 04 98 05 00 00 
    24)      4642.7  Rx     00000060  8  30 00 00 00 1D 00 00 00 
    25)      4664.1  Rx     00000070  8  34 05 16 09 06 10 00 00 
    26)      4665.5  Rx     000007A0  8  64 0A 0D 00 00 00 00 00 
    27)      4667.3  Rx     000007EA  8  01 02 2D 04 98 05 00 00 
    28)      4723.2  Rx     00000060  8  38 00 00 00 3A 00 00 00 
    29)      4742.8  Rx         07EC  0  
    30)      4766.7  Rx     000007EA  8  01 02 2D 04 98 05 00 00 
    31)      4803.6  Rx     00000060  8  40 00 00 00 7B 00 00 00 
    32)      4866.4  Rx     000007EA  8  01 02 2D 04 98 05 00 00 
    33)      4883.3  Rx     00000060  8  48 00 00 00 F0 00 00 00 
    34)      4964.0  Rx     00000060  8  50 00 00 00 F5 00 00 00 
    35)      4967.5  Rx     000007EA  8  01 02 2D 04 98 05 00 00 
    36)      5043.6  Rx     00000060  8  58 00 00 00 E6 00 00 00 
    37)      5066.8  Rx     000007EA  8  01 02 2D 04 98 05 00 00 
    38)      5123.8  Rx     00000060  8  60 00 00 00 E7 00 00 00 
    39)      5165.2  Rx     00000070  8  34 05 16 09 06 10 00 00 
    40)      5166.6  Rx     000007A0  8  64 0A 0D 00 00 00 00 00 
    41)      5168.6  Rx     000007EA  8  01 02 2D 04 98 05 00 00 
    42)      5204.4  Rx     00000060  8  68 00 00 00 C8 00 00 00 
    43)      5243.1  Rx         07EC  0  
    44)      5270.0  Rx     000007EA  8  06 00 00 FF FF 02 00 01 
    45)      5284.1  Rx     00000060  8  70 00 00 00 C9 00 00 00 
    46)      5364.9  Rx     00000060  8  78 00 00 00 8A 00 00 00 
    47)      5444.4  Rx     00000060  8  80 00 00 00 9F 00 00 00 
    48)      5524.9  Rx     00000060  8  88 00 00 00 14 00 00 00 
    49)      5605.3  Rx     00000060  8  90 00 00 00 15 00 00 00 
    50)      5666.0  Rx     00000070  8  35 05 16 09 06 10 00 00 
    51)      5667.4  Rx     000007A0  8  64 0A 0D 00 00 00 00 00 
    52)      5685.0  Rx     00000060  8  98 00 00 00 32 00 00 00 
    53)      5743.3  Rx         07EC  0  
    54)      5765.7  Rx     00000060  8  A0 00 00 00 33 00 00 00 
    55)      5845.2  Rx     00000060  8  A8 00 00 00 28 00 00 00 
    56)      5925.5  Rx     00000060  8  B0 00 00 00 6D 00 00 00 
    57)      6006.0  Rx     00000060  8  B8 00 00 00 6E 00 00 00 
    58)      6085.7  Rx     00000060  8  C0 00 00 00 6F 00 00 00 
    59)      6166.8  Rx     00000060  8  C8 00 00 00 C0 00 00 00 
    60)      6168.2  Rx     00000070  8  35 05 16 09 06 10 00 00 
    61)      6169.7  Rx     000007A0  8  64 0A 0D 00 00 00 00 00 
    62)      6243.5  Rx         07EC  0  
    63)      6246.1  Rx     00000060  8  D0 00 00 00 D1 00 00 00 
    64)      6326.3  Rx     00000060  8  D8 00 00 00 D2 00 00 00 
    65)      6406.8  Rx     00000060  8  E0 00 00 00 D7 00 00 00 
    66)      6486.5  Rx     00000060  8  E8 00 00 00 9C 00 00 00 
    67)      6567.3  Rx     00000060  8  F0 00 00 00 9D 00 00 00 
    68)      6646.9  Rx     00000060  8  F8 00 00 00 AA 00 00 00 
    69)      6667.9  Rx     00000070  8  36 05 16 09 06 10 00 00 
    70)      6669.4  Rx     000007A0  8  64 0A 0D 00 00 00 00 00 
    71)      6727.2  Rx     00000060  8  00 01 00 00 AB 00 00 00 
    72)      6743.8  Rx         07EC  0  
    73)      6807.7  Rx     00000060  8  08 01 00 00 20 00 00 00 
    74)      6887.3  Rx     00000060  8  10 01 00 00 25 00 00 00 
    75)      6968.0  Rx     00000060  8  18 01 00 00 26 00 00 00 
    76)      7047.7  Rx     00000060  8  20 01 00 00 77 00 00 00 
    77)      7128.0  Rx     00000060  8  28 01 00 00 58 00 00 00 
    78)      7169.4  Rx     00000070  8  36 05 16 09 06 10 00 00 
    79)      7170.8  Rx     000007A0  8  64 0A 0D 00 00 00 00 00 
    80)      7208.5  Rx     00000060  8  30 01 00 00 59 00 00 00 
    81)      7244.0  Rx         07EC  0  
    82)      7288.2  Rx     00000060  8  38 01 00 00 5A 00 00 00 
    83)      7369.0  Rx     00000060  8  40 01 00 00 5F 00 00 00 
    84)      7448.6  Rx     00000060  8  48 01 00 00 C4 00 00 00 
    85)      7528.8  Rx     00000060  8  50 01 00 00 C5 00 00 00 
    86)      7609.4  Rx     00000060  8  58 01 00 00 A2 00 00 00 
    87)      7670.1  Rx     00000070  8  37 05 16 09 06 10 00 00 
    88)      7671.5  Rx     000007A0  8  64 0A 0D 00 00 00 00 00 
    89)      7689.0  Rx     00000060  8  60 01 00 00 A3 00 00 00 
    90)      7744.3  Rx         07EC  0  
    91)      7769.8  Rx     00000060  8  68 01 00 00 A8 00 00 00 
    92)      7849.5  Rx     00000060  8  70 01 00 00 BD 00 00 00 
    93)      7929.7  Rx     00000060  8  78 01 00 00 BE 00 00 00 
    94)      8010.3  Rx     00000060  8  80 01 00 00 BF 00 00 00 
    95)      8090.0  Rx     00000060  8  88 01 00 00 10 00 00 00 
    96)      8171.0  Rx     00000060  8  90 01 00 00 51 00 00 00 
    97)      8172.4  Rx     00000070  8  37 05 16 09 06 10 00 00 
    98)      8173.8  Rx     000007A0  8  64 0A 0D 00 00 00 00 00 
    99)      8244.6  Rx         07EC  0  
   100)      8250.3  Rx     00000060  8  98 01 00 00 42 00 00 00 
   101)      8330.5  Rx     00000060  8  A0 01 00 00 47 00 00 00 
   102)      8411.2  Rx     00000060  8  A8 01 00 00 4C 00 00 00 
   103)      8490.8  Rx     00000060  8  B0 01 00 00 4D 00 00 00 
   104)      8571.6  Rx     00000060  8  B8 01 00 00 6A 00 00 00 
   105)      8651.2  Rx     00000060  8  C0 01 00 00 7B 00 00 00 
   106)      8672.3  Rx     00000070  8  38 05 16 09 06 10 00 00 
   107)      8673.7  Rx     000007A0  8  64 0A 0D 00 00 00 00 00 
   108)      8731.4  Rx     00000060  8  C8 01 00 00 B0 00 00 00 
   109)      8744.9  Rx         07EC  0  
   110)      8812.0  Rx     00000060  8  D0 01 00 00 B5 00 00 00 
   111)      8891.8  Rx     00000060  8  D8 01 00 00 B6 00 00 00 
   112)      8972.5  Rx     00000060  8  E0 01 00 00 B7 00 00 00 
   113)      9052.0  Rx     00000060  8  E8 01 00 00 88 00 00 00 
   114)      9132.3  Rx     00000060  8  F0 01 00 00 89 00 00 00 
   115)      9173.7  Rx     00000070  8  38 05 16 09 06 10 00 00 
   116)      9175.1  Rx     000007A0  8  64 0A 0D 00 00 00 00 00 
   117)      9212.9  Rx     00000060  8  F8 01 00 00 8A 00 00 00 
   118)      9245.1  Rx         07EC  0  
   119)      9292.5  Rx     00000060  8  00 02 00 00 CF 00 00 00 
   120)      9373.2  Rx     00000060  8  08 02 00 00 44 00 00 00 
   121)      9452.8  Rx     00000060  8  10 02 00 00 55 00 00 00 
   122)      9533.0  Rx     00000060  8  18 02 00 00 72 00 00 00 
   123)      9613.6  Rx     00000060  8  20 02 00 00 73 00 00 00 
   124)      9674.3  Rx     00000070  8  39 05 16 09 06 10 00 00 
   125)      9675.7  Rx     000007A0  8  64 0A 0D 00 00 00 00 00 
   126)      9693.3  Rx     00000060  8  28 02 00 00 78 00 00 00 
   127)      9745.4  Rx         07EC  0  
   128)      9774.0  Rx     00000060  8  30 02 00 00 7D 00 00 00 
   129)      9853.7  Rx     00000060  8  38 02 00 00 2E 00 00 00 
   130)      9933.9  Rx     00000060  8  40 02 00 00 2F 00 00 00 
   131)     10014.4  Rx     00000060  8  48 02 00 00 80 00 00 00 
   132)     10094.1  Rx     00000060  8  50 02 00 00 81 00 00 00 
   133)     10175.2  Rx     00000060  8  58 02 00 00 82 00 00 00 
   134)     10176.6  Rx     00000070  8  39 05 16 09 06 10 00 00 
   135)     10178.1  Rx     000007A0  8  64 0A 0D 00 00 00 00 00 
   136)     10245.7  Rx         07EC  0  
   137)     10254.5  Rx     00000060  8  60 02 00 00 97 00 00 00 
   138)     10334.9  Rx     00000060  8  68 02 00 00 9C 00 00 00 
   139)     10415.3  Rx     00000060  8  70 02 00 00 DD 00 00 00 
   140)     10494.8  Rx     00000060  8  78 02 00 00 FA 00 00 00 
   141)     10575.6  Rx     00000060  8  80 02 00 00 FB 00 00 00 
   142)     10655.3  Rx     00000060  8  88 02 00 00 60 00 00 00 
   143)     10676.3  Rx     00000070  8  3A 05 16 09 06 10 00 00 
   144)     10677.7  Rx     000007A0  8  64 0A 0D 00 00 00 00 00 
   145)     10735.5  Rx     00000060  8  90 02 00 00 65 00 00 00 
   146)     10745.9  Rx         07EC  0  
   147)     10816.1  Rx     00000060  8  98 02 00 00 66 00 00 00 
   148)     10895.9  Rx     00000060  8  A0 02 00 00 67 00 00 00 
   149)     10976.5  Rx     00000060  8  A8 02 00 00 08 00 00 00 
   150)     11056.2  Rx     00000060  8  B0 02 00 00 19 00 00 00 
   151)     11136.4  Rx     00000060  8  B8 02 00 00 1A 00 00 00 
   152)     11177.7  Rx     00000070  8  3A 05 16 09 06 10 00 00 
   153)     11179.2  Rx     000007A0  8  64 0A 0D 00 00 00 00 00 
   154)     11217.0  Rx     00000060  8  C0 02 00 00 1F 00 00 00 
   155)     11246.2  Rx         07EC  0  
   156)     11296.7  Rx     00000060  8  C8 02 00 00 94 00 00 00 
   157)     11377.4  Rx     00000060  8  D0 02 00 00 95 00 00 00 
   158)     11457.0  Rx     00000060  8  D8 02 00 00 A2 00 00 00 
   159)     11537.3  Rx     00000060  8  E0 02 00 00 E3 00 00 00 
   160)     11617.9  Rx     00000060  8  E8 02 00 00 E8 00 00 00 
   161)     11678.5  Rx     00000070  8  3B 05 16 09 06 10 00 00 
   162)     11680.0  Rx     000007A0  8  64 0A 0D 00 00 00 00 00 
   163)     11697.4  Rx     00000060  8  F0 02 00 00 ED 00 00 00 
   164)     11746.5  Rx         07EC  0  
   165)     11778.2  Rx     00000060  8  F8 02 00 00 EE 00 00 00 
   166)     11857.8  Rx     00000060  8  00 03 00 00 FF 00 00 00 
   167)     11938.1  Rx     00000060  8  08 03 00 00 50 00 00 00 
   168)     12018.7  Rx     00000060  8  10 03 00 00 51 00 00 00 
   169)     12098.4  Rx     00000060  8  18 03 00 00 12 00 00 00 
