;$FILEVERSION=1.1
;$STARTTIME=42530.9198822222
;
;   C:\Files\FabLab\CAN-Intrusion\ohne.trc
;
;   Start time: 09.06.2016 22:04:37.824.0
;   Generated by PCAN-View v4.0.28.419
;
;   Message Number
;   |         Time Offset (ms)
;   |         |        Type
;   |         |        |        ID (hex)
;   |         |        |        |     Data Length
;   |         |        |        |     |   Data Bytes (hex) ...
;   |         |        |        |     |   |
;---+--   ----+----  --+--  ----+---  +  -+ -- -- -- -- -- -- --
     1)      1603.0  Rx         07ED  0  RTR
     2)      1654.5  Rx         07EC  0  
     3)      1667.5  Rx         07ED  0  RTR
     4)      2072.1  Rx         0000  3  82 00 01 
     5)      2074.6  Rx         07EC  0  
     6)      2075.6  Rx         07EA  8  01 01 3F 04 DC 05 00 00 
     7)      2076.3  Rx         07E9  8  01 01 02 00 DC 05 00 00 
     8)      2076.9  Rx         07EA  8  01 02 2D 04 98 05 00 00 
     9)      2079.5  Rx         07A0  8  64 0A 0D 00 00 00 00 00 
    10)      2085.3  Rx         07E9  8  01 02 02 00 98 05 00 00 
    11)      2087.9  Rx         07EA  8  06 00 00 FF FF 02 00 01 
    12)      2107.3  Rx         0062  8  08 02 03 00 00 00 00 00 
    13)      2121.9  Rx         0070  8  2B 04 16 09 06 10 00 00 
    14)      2151.0  Rx         0060  8  08 00 00 00 00 00 00 00 
    15)      2231.2  Rx         0060  8  10 00 00 00 01 00 00 00 
    16)      2311.2  Rx         0060  8  18 00 00 00 02 00 00 00 
    17)      2314.0  Rx         0000  3  01 01 01 
    18)      2315.1  Rx         0080  8  07 01 00 00 00 00 00 00 
    19)      2316.0  Rx         0702  8  A0 0C 10 00 01 07 00 00 
    20)      2325.8  Rx         0682  8  4B 0C 10 00 00 02 00 00 
    21)      2328.3  Rx         0702  8  A0 0A 10 00 01 07 00 00 
    22)      2330.5  Rx         0682  8  4B 0A 10 00 13 01 00 00 
    23)      2333.5  Rx         0702  8  A0 04 10 00 01 07 00 00 
    24)      2335.8  Rx         0682  8  43 04 10 00 81 10 00 40 
    25)      2338.3  Rx         0702  8  A0 01 10 00 01 07 00 00 
    26)      2345.8  Rx         0682  8  4F 01 10 00 01 00 00 00 
    27)      2348.4  Rx         0702  8  A0 0F 10 FF 05 07 00 00 
    28)      2350.4  Rx         0682  8  C2 0F 10 FF 20 00 00 00 
    29)      2352.7  Rx         0702  8  A3 00 00 00 00 00 00 00 
    30)      2356.0  Rx         0682  8  01 38 00 05 00 00 00 04 
    31)      2357.7  Rx         0682  8  02 00 16 00 00 00 00 00 
    32)      2359.7  Rx         0682  8  03 1C 00 10 00 00 00 00 
    33)      2361.4  Rx         0682  8  04 00 00 00 02 00 00 00 
    34)      2362.2  Rx         0682  8  85 11 00 08 00 00 00 00 
    35)      2363.2  Rx         0702  8  A2 05 00 00 00 00 00 00 
    36)      2364.5  Rx         0702  8  A0 00 40 FF 06 07 00 00 
    37)      2365.3  Rx         0080  8  83 02 00 00 00 00 00 00 
    38)      2366.3  Rx         0080  8  07 01 01 00 00 00 00 00 
    39)      2375.0  Rx         0682  8  C2 00 40 FF 0A 00 00 00 
    40)      2376.1  Rx         0702  8  A3 00 00 00 00 00 00 00 
    41)      2391.0  Rx         0682  8  01 05 00 00 A0 0C 11 01 
    42)      2391.5  Rx         0060  8  20 00 00 00 07 00 00 00 
    43)      2392.0  Rx         0682  8  82 00 00 A0 00 00 00 00 
    44)      2393.3  Rx         0702  8  A2 02 00 00 00 00 00 00 
    45)      2394.3  Rx         0702  8  A0 01 40 FF 06 07 00 00 
    46)      2396.0  Rx         0682  8  C2 01 40 FF 0A 00 00 00 
    47)      2398.1  Rx         0702  8  A3 00 00 00 00 00 00 00 
    48)      2406.8  Rx         0682  8  01 05 00 00 A0 2A 11 01 
    49)      2408.0  Rx         0682  8  82 00 01 A0 00 00 00 00 
    50)      2412.5  Rx         0702  8  A2 02 00 00 00 00 00 00 
    51)      2413.9  Rx         0702  8  A0 02 40 FF 06 07 00 00 
    52)      2415.5  Rx         0682  8  C2 02 40 FF 0A 00 00 00 
    53)      2418.1  Rx         0702  8  A3 00 00 00 00 00 00 00 
    54)      2426.8  Rx         0682  8  01 05 00 00 A0 15 11 01 
    55)      2427.7  Rx         0682  8  82 00 02 A0 00 00 00 00 
    56)      2432.5  Rx         0702  8  A2 02 00 00 00 00 00 00 
    57)      2434.1  Rx         0702  8  A0 03 40 FF 06 07 00 00 
    58)      2435.7  Rx         0682  8  C2 03 40 FF 0A 00 00 00 
    59)      2438.1  Rx         0702  8  A3 00 00 00 00 00 00 00 
    60)      2446.9  Rx         0682  8  01 05 00 00 A0 21 11 01 
    61)      2447.8  Rx         0682  8  82 00 03 A0 00 00 00 00 
    62)      2452.4  Rx         0702  8  A2 02 00 00 00 00 00 00 
    63)      2453.6  Rx         0702  8  A0 00 30 FF 01 07 00 00 
    64)      2455.6  Rx         0682  8  41 00 30 FF 06 00 00 00 
    65)      2458.2  Rx         0702  8  60 00 30 FF 06 00 00 00 
    66)      2466.8  Rx         0682  8  03 00 41 01 00 00 00 00 
    67)      2468.5  Rx         0702  8  A0 01 30 FF 01 07 00 00 
    68)      2470.6  Rx         0682  8  41 01 30 FF 06 00 00 00 
    69)      2472.3  Rx         0060  8  28 00 00 00 0C 00 00 00 
    70)      2475.6  Rx         0702  8  60 01 30 FF 06 00 00 00 
    71)      2477.9  Rx         0682  8  03 01 41 01 00 00 00 00 
    72)      2483.5  Rx         0702  8  A0 02 30 FF 01 07 00 00 
    73)      2492.4  Rx         0682  8  41 02 30 FF 06 00 00 00 
    74)      2494.3  Rx         0702  8  60 02 30 FF 06 00 00 00 
    75)      2496.6  Rx         0682  8  03 02 41 01 00 00 00 00 
    76)      2498.7  Rx         0702  8  A0 03 30 FF 01 07 00 00 
    77)      2506.9  Rx         0682  8  41 03 30 FF 06 00 00 00 
    78)      2508.3  Rx         0702  8  60 03 30 FF 06 00 00 00 
    79)      2510.6  Rx         0682  8  03 03 41 01 00 00 00 00 
    80)      2513.7  Rx         0702  8  A0 04 30 FF 01 07 00 00 
    81)      2515.8  Rx         0682  8  41 04 30 FF 06 00 00 00 
    82)      2518.3  Rx         0702  8  60 04 30 FF 06 00 00 00 
    83)      2525.9  Rx         0682  8  03 07 41 01 00 00 00 00 
    84)      2528.7  Rx         0702  8  A0 20 10 00 01 07 00 00 
    85)      2530.8  Rx         0682  8  4B 20 10 00 03 00 00 00 
    86)      2533.9  Rx         0702  8  A0 20 10 01 01 07 00 00 
    87)      2536.1  Rx         0682  8  4B 20 10 01 21 20 00 00 
    88)      2538.7  Rx         0702  8  A0 20 10 02 01 07 00 00 
    89)      2545.8  Rx         0682  8  43 20 10 02 00 00 00 04 
    90)      2548.9  Rx         0702  8  A0 00 20 FF 02 07 00 00 
    91)      2550.5  Rx         0682  8  C2 00 20 FF 08 00 00 00 
    92)      2552.0  Rx         0060  8  30 00 00 00 1D 00 00 00 
    93)      2553.5  Rx         0702  8  A3 00 00 00 00 00 00 00 
    94)      2556.6  Rx         0682  8  01 00 80 5E 86 19 20 01 
    95)      2558.0  Rx         0682  8  82 20 00 00 00 00 00 00 
    96)      2562.7  Rx         0702  8  A2 02 00 00 00 00 00 00 
    97)      2563.8  Rx         0702  8  A0 01 20 FF 02 07 00 00 
    98)      2568.7  Rx         0682  8  C2 01 20 FF 08 00 00 00 
    99)      2572.9  Rx         0070  8  2C 04 16 09 06 10 00 00 
   100)      2573.9  Rx         07A0  8  64 0A 0D 00 00 00 00 00 
   101)      2576.2  Rx         0702  8  A3 00 00 00 00 00 00 00 
   102)      2586.9  Rx         0682  8  01 00 80 8F 84 00 00 02 
   103)      2587.7  Rx         0682  8  82 20 00 00 00 00 00 00 
   104)      2588.6  Rx         0702  8  A2 02 00 00 00 00 00 00 
   105)      2589.5  Rx         0702  8  A0 02 20 FF 02 07 00 00 
   106)      2594.3  Rx         0682  8  C2 02 20 FF 08 00 00 00 
   107)      2596.4  Rx         0702  8  A3 00 00 00 00 00 00 00 
   108)      2606.9  Rx         0682  8  01 00 80 DF 80 0A 20 03 
   109)      2607.9  Rx         0682  8  82 20 00 00 00 00 00 00 
   110)      2613.0  Rx         0702  8  A2 02 00 00 00 00 00 00 
   111)      2614.4  Rx         0702  8  A0 03 20 FF 02 07 00 00 
   112)      2616.1  Rx         0682  8  C2 03 20 FF 08 00 00 00 
   113)      2618.5  Rx         0702  8  A3 00 00 00 00 00 00 00 
   114)      2626.8  Rx         0682  8  01 30 90 C8 80 04 20 00 
   115)      2627.7  Rx         0682  8  82 48 00 00 00 00 00 00 
   116)      2628.7  Rx         0702  8  A2 02 00 00 00 00 00 00 
   117)      2629.6  Rx         0702  8  A0 04 20 FF 02 07 00 00 
   118)      2631.3  Rx         0682  8  C2 04 20 FF 08 00 00 00 
   119)      2632.3  Rx         0060  8  38 00 00 00 3A 00 00 00 
   120)      2634.1  Rx         0702  8  A3 00 00 00 00 00 00 00 
   121)      2637.3  Rx         0682  8  01 30 80 76 81 05 20 06 
   122)      2638.3  Rx         0682  8  82 48 00 00 00 00 00 00 
   123)      2642.8  Rx         0702  8  A2 02 00 00 00 00 00 00 
   124)      2643.9  Rx         0702  8  A0 05 20 FF 02 07 00 00 
   125)      2649.6  Rx         0682  8  C2 05 20 FF 08 00 00 00 
   126)      2653.4  Rx         0702  8  A3 00 00 00 00 00 00 00 
   127)      2656.6  Rx         0682  8  01 33 50 21 85 06 20 00 
   128)      2657.9  Rx         0682  8  82 60 00 00 00 00 00 00 
   129)      2658.8  Rx         0702  8  A2 02 00 00 00 00 00 00 
   130)      2659.5  Rx         0702  8  A0 06 20 FF 02 07 00 00 
   131)      2668.1  Rx         0682  8  C2 06 20 FF 08 00 00 00 
   132)      2675.6  Rx         0702  8  A3 00 00 00 00 00 00 00 
   133)      2678.7  Rx         0682  8  01 00 C0 A5 83 07 20 0D 
   134)      2679.8  Rx         0682  8  82 48 00 00 00 00 00 00 
   135)      2683.2  Rx         0702  8  A2 02 00 00 00 00 00 00 
   136)      2684.8  Rx         0702  8  A0 07 20 FF 02 07 00 00 
   137)      2694.1  Rx         0682  8  C2 07 20 FF 08 00 00 00 
   138)      2696.7  Rx         0702  8  A3 00 00 00 00 00 00 00 
   139)      2706.9  Rx         0682  8  01 33 60 82 80 08 20 05 
   140)      2708.0  Rx         0682  8  82 60 00 00 00 00 00 00 
   141)      2708.8  Rx         0702  8  A2 02 00 00 00 00 00 00 
   142)      2709.6  Rx         0702  8  A0 08 20 FF 02 07 00 00 
   143)      2711.3  Rx         0682  8  C2 08 20 FF 08 00 00 00 
   144)      2712.7  Rx         0060  8  40 00 00 00 7B 00 00 00 
   145)      2714.1  Rx         0702  8  A3 00 00 00 00 00 00 00 
   146)      2717.2  Rx         0682  8  01 33 70 06 84 09 20 10 
   147)      2718.2  Rx         0682  8  82 60 00 00 00 00 00 00 
   148)      2724.0  Rx         0702  8  A2 02 00 00 00 00 00 00 
   149)      2725.4  Rx         0702  8  A0 09 20 FF 02 07 00 00 
   150)      2727.3  Rx         0682  8  C2 09 20 FF 08 00 00 00 
   151)      2728.7  Rx         0702  8  A3 00 00 00 00 00 00 00 
   152)      2731.9  Rx         0682  8  01 DD 80 76 81 00 00 0D 
   153)      2732.5  Rx         0682  8  82 60 00 00 00 00 00 00 
   154)      2734.0  Rx         0702  8  A2 02 00 00 00 00 00 00 
   155)      2735.1  Rx         0702  8  A0 0A 20 FF 02 07 00 00 
   156)      2736.8  Rx         0682  8  C2 0A 20 FF 08 00 00 00 
   157)      2738.7  Rx         0702  8  A3 00 00 00 00 00 00 00 
   158)      2747.2  Rx         0682  8  01 00 80 22 85 10 20 0B 
   159)      2748.1  Rx         0682  8  82 20 00 00 00 00 00 00 
   160)      2748.9  Rx         0702  8  A2 02 00 00 00 00 00 00 
   161)      2749.9  Rx         0702  8  A0 0B 20 FF 02 07 00 00 
   162)      2751.6  Rx         0682  8  C2 0B 20 FF 08 00 00 00 
   163)      2753.5  Rx         0702  8  A3 00 00 00 00 00 00 00 
   164)      2756.6  Rx         0682  8  01 33 40 6A 85 0C 20 11 
   165)      2758.0  Rx         0682  8  82 60 00 00 00 00 00 00 
   166)      2758.9  Rx         0702  8  A2 02 00 00 00 00 00 00 
   167)      2759.8  Rx         0702  8  A0 0C 20 FF 02 07 00 00 
   168)      2768.1  Rx         0682  8  C2 0C 20 FF 08 00 00 00 
   169)      2775.4  Rx         0702  8  A3 00 00 00 00 00 00 00 
   170)      2778.5  Rx         0682  8  01 33 48 6B 85 0D 20 12 
   171)      2779.6  Rx         0682  8  82 60 00 00 00 00 00 00 
   172)      2783.2  Rx         0702  8  A2 02 00 00 00 00 00 00 
   173)      2784.7  Rx         0702  8  A0 0D 20 FF 02 07 00 00 
   174)      2790.8  Rx         0682  8  C2 0D 20 FF 08 00 00 00 
   175)      2792.6  Rx         0060  8  48 00 00 00 F0 00 00 00 
   176)      2794.1  Rx         0702  8  A3 00 00 00 00 00 00 00 
   177)      2797.2  Rx         0682  8  01 00 10 28 80 0E 20 06 
   178)      2798.2  Rx         0682  8  82 60 00 00 00 00 00 00 
   179)      2799.1  Rx         0702  8  A2 02 00 00 00 00 00 00 
   180)      2800.0  Rx         0702  8  A0 0E 20 FF 02 07 00 00 
   181)      2812.7  Rx         0682  8  C2 0E 20 FF 08 00 00 00 
   182)      2813.8  Rx         0702  8  A3 00 00 00 00 00 00 00 
   183)      2817.0  Rx         0682  8  01 33 60 17 82 0F 20 14 
   184)      2818.0  Rx         0682  8  82 60 00 00 00 00 00 00 
   185)      2819.0  Rx         0702  8  A2 02 00 00 00 00 00 00 
   186)      2819.9  Rx         0702  8  A0 0F 20 FF 02 07 00 00 
   187)      2827.1  Rx         0682  8  C2 0F 20 FF 08 00 00 00 
   188)      2828.9  Rx         0702  8  A3 00 00 00 00 00 00 00 
   189)      2832.1  Rx         0682  8  01 33 90 15 82 00 00 13 
   190)      2832.8  Rx         0682  8  82 60 00 00 00 00 00 00 
   191)      2834.2  Rx         0702  8  A2 02 00 00 00 00 00 00 
   192)      2835.4  Rx         0702  8  A0 10 20 FF 02 07 00 00 
   193)      2837.0  Rx         0682  8  C2 10 20 FF 08 00 00 00 
   194)      2838.9  Rx         0702  8  A3 00 00 00 00 00 00 00 
   195)      2847.5  Rx         0682  8  01 33 C0 29 85 00 00 11 
   196)      2848.4  Rx         0682  8  82 20 00 00 00 00 00 00 
   197)      2853.2  Rx         0702  8  A2 02 00 00 00 00 00 00 
   198)      2854.4  Rx         0702  8  A0 19 20 FF 02 07 00 00 
   199)      2856.1  Rx         0682  8  C2 19 20 FF 08 00 00 00 
   200)      2857.1  Rx         0702  8  A3 00 00 00 00 00 00 00 
   201)      2867.9  Rx         0682  8  01 00 C0 3D 84 00 00 1A 
   202)      2868.8  Rx         0682  8  82 20 00 00 00 00 00 00 
   203)      2873.0  Rx         0060  8  50 00 00 00 F5 00 00 00 
   204)      2875.2  Rx         0702  8  A2 02 00 00 00 00 00 00 
   205)      2877.4  Rx         0702  8  A0 1A 20 FF 02 07 00 00 
   206)      2885.6  Rx         0682  8  C2 1A 20 FF 08 00 00 00 
   207)      2887.0  Rx         0702  8  A3 00 00 00 00 00 00 00 
   208)      2890.4  Rx         0682  8  01 00 40 E2 80 1C 20 1B 
   209)      2891.1  Rx         0682  8  82 20 00 00 00 00 00 00 
   210)      2893.7  Rx         0702  8  A2 02 00 00 00 00 00 00 
   211)      2895.1  Rx         0702  8  A0 1B 20 FF 02 07 00 00 
   212)      2896.7  Rx         0682  8  C2 1B 20 FF 08 00 00 00 
   213)      2899.0  Rx         0702  8  A3 00 00 00 00 00 00 00 
   214)      2907.2  Rx         0682  8  01 06 80 A6 80 00 00 02 
   215)      2908.2  Rx         0682  8  82 10 00 00 00 00 00 00 
   216)      2909.2  Rx         0702  8  A2 02 00 00 00 00 00 00 
   217)      2910.1  Rx         0702  8  A0 1C 20 FF 02 07 00 00 
   218)      2914.9  Rx         0682  8  C2 1C 20 FF 08 00 00 00 
   219)      2917.1  Rx         0702  8  A3 00 00 00 00 00 00 00 
   220)      2928.1  Rx         0682  8  01 AA 80 AF 81 1E 20 1D 
   221)      2929.0  Rx         0682  8  82 20 00 00 00 00 00 00 
   222)      2933.5  Rx         0702  8  A2 02 00 00 00 00 00 00 
   223)      2935.0  Rx         0702  8  A0 1E 20 FF 02 07 00 00 
   224)      2936.7  Rx         0682  8  C2 1E 20 FF 08 00 00 00 
   225)      2939.1  Rx         0702  8  A3 00 00 00 00 00 00 00 
   226)      2947.1  Rx         0682  8  01 00 80 9A 80 29 20 1F 
   227)      2948.0  Rx         0682  8  82 20 00 00 00 00 00 00 
   228)      2949.2  Rx         0702  8  A2 02 00 00 00 00 00 00 
   229)      2950.1  Rx         0702  8  A0 1F 20 FF 02 07 00 00 
   230)      2951.8  Rx         0682  8  C2 1F 20 FF 08 00 00 00 
   231)      2952.9  Rx         0060  8  58 00 00 00 E6 00 00 00 
   232)      2954.3  Rx         0702  8  A3 00 00 00 00 00 00 00 
   233)      2957.4  Rx         0682  8  01 00 80 A6 80 00 00 20 
   234)      2958.8  Rx         0682  8  82 20 00 00 00 00 00 00 
   235)      2963.5  Rx         0702  8  A2 02 00 00 00 00 00 00 
   236)      2964.7  Rx         0702  8  A0 20 20 FF 02 07 00 00 
   237)      2969.6  Rx         0682  8  C2 20 20 FF 08 00 00 00 
   238)      2975.8  Rx         0702  8  A3 00 00 00 00 00 00 00 
   239)      2979.0  Rx         0682  8  01 F0 40 9D 81 21 20 08 
   240)      2980.0  Rx         0682  8  82 10 00 00 00 00 00 00 
   241)      2983.6  Rx         0702  8  A2 02 00 00 00 00 00 00 
   242)      2985.3  Rx         0702  8  A0 21 20 FF 02 07 00 00 
   243)      2990.2  Rx         0682  8  C2 21 20 FF 08 00 00 00 
   244)      2993.9  Rx         0702  8  A3 00 00 00 00 00 00 00 
   245)      2997.0  Rx         0682  8  01 A0 48 8F 82 22 20 0F 
   246)      2998.1  Rx         0682  8  82 60 00 00 00 00 00 00 
   247)      2999.3  Rx         0702  8  A2 02 00 00 00 00 00 00 
   248)      3000.2  Rx         0702  8  A0 22 20 FF 02 07 00 00 
   249)      3007.2  Rx         0682  8  C2 22 20 FF 08 00 00 00 
   250)      3009.2  Rx         0702  8  A3 00 00 00 00 00 00 00 
   251)      3012.4  Rx         0682  8  01 F0 50 EB 80 23 20 0D 
   252)      3013.0  Rx         0682  8  82 10 00 00 00 00 00 00 
   253)      3014.4  Rx         0702  8  A2 02 00 00 00 00 00 00 
   254)      3015.6  Rx         0702  8  A0 23 20 FF 02 07 00 00 
   255)      3017.3  Rx         0682  8  C2 23 20 FF 08 00 00 00 
   256)      3019.3  Rx         0702  8  A3 00 00 00 00 00 00 00 
   257)      3032.8  Rx         0060  8  60 00 00 00 E7 00 00 00 
   258)      3033.3  Rx         0682  8  01 F0 60 EC 80 24 20 06 
   259)      3033.9  Rx         0682  8  82 10 00 00 00 00 00 00 
   260)      3035.1  Rx         0702  8  A2 02 00 00 00 00 00 00 
   261)      3036.1  Rx         0702  8  A0 24 20 FF 02 07 00 00 
   262)      3045.5  Rx         0682  8  C2 24 20 FF 08 00 00 00 
   263)      3047.3  Rx         0702  8  A3 00 00 00 00 00 00 00 
   264)      3050.5  Rx         0682  8  01 F0 70 B2 81 25 20 07 
   265)      3051.2  Rx         0682  8  82 10 00 00 00 00 00 00 
   266)      3054.0  Rx         0702  8  A2 02 00 00 00 00 00 00 
   267)      3055.4  Rx         0702  8  A0 25 20 FF 02 07 00 00 
   268)      3057.1  Rx         0682  8  C2 25 20 FF 08 00 00 00 
   269)      3059.3  Rx         0702  8  A3 00 00 00 00 00 00 00 
   270)      3070.7  Rx         0682  8  01 F0 80 B3 81 26 20 0A 
   271)      3071.4  Rx         0682  8  82 10 00 00 00 00 00 00 
   272)      3074.5  Rx         0070  8  2C 04 16 09 06 10 00 00 
   273)      3075.6  Rx         07A0  8  64 0A 0D 00 00 00 00 00 
   274)      3076.4  Rx         0702  8  A2 02 00 00 00 00 00 00 
   275)      3079.2  Rx         0702  8  A0 26 20 FF 02 07 00 00 
   276)      3086.3  Rx         0682  8  C2 26 20 FF 08 00 00 00 
   277)      3087.4  Rx         0702  8  A3 00 00 00 00 00 00 00 
   278)      3090.6  Rx         0682  8  01 F0 90 B4 81 27 20 09 
   279)      3091.2  Rx         0682  8  82 10 00 00 00 00 00 00 
   280)      3094.1  Rx         0702  8  A2 02 00 00 00 00 00 00 
   281)      3095.5  Rx         0702  8  A0 27 20 FF 02 07 00 00 
   282)      3097.1  Rx         0682  8  C2 27 20 FF 08 00 00 00 
   283)      3099.4  Rx         0702  8  A3 00 00 00 00 00 00 00 
   284)      3107.6  Rx         0682  8  01 FA A0 B0 81 28 20 0B 
   285)      3108.6  Rx         0682  8  82 10 00 00 00 00 00 00 
   286)      3109.6  Rx         0702  8  A2 02 00 00 00 00 00 00 
   287)      3110.4  Rx         0702  8  A0 28 20 FF 02 07 00 00 
   288)      3112.1  Rx         0682  8  C2 28 20 FF 08 00 00 00 
   289)      3113.4  Rx         0060  8  68 00 00 00 C8 00 00 00 
   290)      3114.8  Rx         0702  8  A3 00 00 00 00 00 00 00 
   291)      3118.0  Rx         0682  8  01 F0 B0 E9 80 00 00 00 
   292)      3119.0  Rx         0682  8  82 10 00 00 00 00 00 00 
   293)      3124.6  Rx         0702  8  A2 02 00 00 00 00 00 00 
   294)      3126.2  Rx         0702  8  A0 29 20 FF 02 07 00 00 
   295)      3133.2  Rx         0682  8  C2 29 20 FF 08 00 00 00 
   296)      3134.6  Rx         0702  8  A3 00 00 00 00 00 00 00 
   297)      3137.8  Rx         0682  8  01 66 80 97 80 00 00 2A 
   298)      3138.8  Rx         0682  8  82 20 00 00 00 00 00 00 
   299)      3143.7  Rx         0702  8  A2 02 00 00 00 00 00 00 
   300)      3146.4  Rx         0000  3  01 02 01 
   301)      3148.2  Rx         0702  8  2B 04 30 02 61 01 00 00 
   302)      3150.2  Rx         0682  8  60 04 30 02 01 61 00 00 
   303)      3154.4  Rx         0702  8  2B 04 30 01 02 00 00 00 
   304)      3156.1  Rx         0682  8  60 04 30 01 00 02 00 00 
   305)      3157.9  Rx         0701  8  2B 0E 40 03 02 00 00 00 
   306)      3158.5  Rx         0681  8  60 0E 40 03 02 00 00 00 
   307)      3159.4  Rx         0080  8  01 00 07 41 00 00 00 00 
   308)      3164.6  Rx         0702  8  2B 03 30 02 91 00 00 00 
   309)      3168.4  Rx         0682  8  60 03 30 02 00 91 00 00 
   310)      3169.9  Rx         0702  8  2B 03 30 01 02 00 00 00 
   311)      3171.6  Rx         0682  8  60 03 30 01 00 02 00 00 
   312)      3177.0  Rx         0701  8  2B 01 40 03 02 00 00 00 
   313)      3177.7  Rx         0681  8  60 01 40 03 02 00 00 00 
   314)      3178.4  Rx         0080  8  01 00 03 41 00 00 00 00 
   315)      3179.7  Rx         0701  8  2B 07 30 02 B2 00 00 00 
   316)      3180.2  Rx         0681  8  60 07 30 02 B2 00 00 00 
   317)      3181.1  Rx         0701  8  2B 07 30 01 02 00 00 00 
   318)      3184.2  Rx         0681  8  60 07 30 01 02 00 00 00 
   319)      3185.7  Rx         0702  8  2B 03 40 03 02 00 00 00 
   320)      3187.4  Rx         0682  8  60 03 40 03 00 02 00 00 
   321)      3189.8  Rx         0080  8  01 00 21 11 00 00 00 00 
   322)      3191.0  Rx         0701  8  2B 0B 30 02 A2 00 00 00 
   323)      3193.3  Rx         0060  8  70 00 00 00 C9 00 00 00 
   324)      3194.3  Rx         0681  8  60 0B 30 02 A2 00 00 00 
   325)      3195.7  Rx         0701  8  2B 0B 30 01 02 00 00 00 
   326)      3196.3  Rx         0681  8  60 0B 30 01 02 00 00 00 
   327)      3197.1  Rx         0702  8  2B 02 40 03 02 00 00 00 
   328)      3207.1  Rx         0682  8  60 02 40 03 00 02 00 00 
   329)      3209.8  Rx         0080  8  01 00 15 11 00 00 00 00 
   330)      3210.7  Rx         00A2  8  00 00 00 00 00 00 00 00 
   331)      3214.8  Rx         0701  8  2B 08 30 02 92 00 00 00 
   332)      3215.5  Rx         0681  8  60 08 30 02 92 00 00 00 
   333)      3216.4  Rx         0701  8  2B 08 30 01 02 00 00 00 
   334)      3216.9  Rx         0681  8  60 08 30 01 02 00 00 00 
   335)      3217.9  Rx         0702  8  2B 01 40 03 02 00 00 00 
   336)      3226.0  Rx         0682  8  60 01 40 03 00 02 00 00 
   337)      3228.0  Rx         0080  8  01 00 2A 11 00 00 00 00 
   338)      3229.1  Rx         0701  8  2B 01 30 02 82 00 00 00 
   339)      3230.0  Rx         0681  8  60 01 30 02 82 00 00 00 
   340)      3230.8  Rx         0701  8  2B 01 30 01 02 00 00 00 
   341)      3231.6  Rx         0681  8  60 01 30 01 02 00 00 00 
   342)      3235.7  Rx         0702  8  2B 00 40 03 02 00 00 00 
   343)      3237.4  Rx         0682  8  60 00 40 03 00 02 00 00 
   344)      3240.0  Rx         0080  8  01 00 0C 11 00 00 00 00 
   345)      3241.0  Rx         0082  8  00 00 00 00 00 00 00 00 
   346)      3244.7  Rx         0080  8  07 01 02 00 00 00 00 00 
   347)      3256.1  Rx         0702  8  A0 10 10 FF 01 07 00 00 
   348)      3269.1  Rx         0682  8  80 10 10 FF 02 00 00 06 
   349)      3273.7  Rx         0060  8  78 00 00 00 8A 00 00 00 
   350)      3275.9  Rx         0702  8  40 10 10 FF 02 00 00 06 
   351)      3277.3  Rx         0682  8  80 10 10 FF 02 00 00 06 
   352)      3280.6  Rx         0702  8  2B 00 30 02 81 00 00 00 
   353)      3286.4  Rx         0682  8  60 00 30 02 00 81 00 00 
   354)      3288.0  Rx         0702  8  2B 00 30 01 02 00 00 00 
   355)      3289.7  Rx         0682  8  60 00 30 01 00 02 00 00 
   356)      3294.7  Rx         0701  8  2B 00 40 03 02 00 00 00 
   357)      3295.2  Rx         0681  8  60 00 40 03 02 00 00 00 
   358)      3296.2  Rx         0701  8  2B 04 30 02 A1 00 00 00 
   359)      3296.9  Rx         0681  8  60 04 30 02 A1 00 00 00 
   360)      3298.0  Rx         0701  8  2B 04 30 01 02 00 00 00 
   361)      3298.5  Rx         0681  8  60 04 30 01 02 00 00 00 
   362)      3299.3  Rx         0701  8  2B 02 40 03 02 00 00 00 
   363)      3300.1  Rx         0681  8  60 02 40 03 02 00 00 00 
   364)      3300.9  Rx         0701  8  2B 09 30 02 31 01 00 00 
   365)      3301.7  Rx         0681  8  60 09 30 02 31 01 00 00 
   366)      3305.0  Rx         0701  8  2B 09 30 01 02 00 00 00 
   367)      3305.7  Rx         0681  8  60 09 30 01 02 00 00 00 
   368)      3306.5  Rx         0701  8  2B 0B 40 03 02 00 00 00 
   369)      3307.1  Rx         0681  8  60 0B 40 03 02 00 00 00 
   370)      3308.2  Rx         0701  8  2B 0A 30 02 41 01 00 00 
   371)      3308.7  Rx         0681  8  60 0A 30 02 41 01 00 00 
   372)      3309.8  Rx         0701  8  2B 0A 30 01 02 00 00 00 
   373)      3310.4  Rx         0681  8  60 0A 30 01 02 00 00 00 
   374)      3314.4  Rx         0701  8  2B 0C 40 03 02 00 00 00 
   375)      3315.0  Rx         0681  8  60 0C 40 03 02 00 00 00 
   376)      3316.3  Rx         0080  8  01 00 00 41 00 00 00 00 
   377)      3317.7  Rx         0080  8  01 00 16 01 00 00 00 00 
   378)      3318.8  Rx         0080  8  01 00 12 01 00 00 00 00 
   379)      3319.8  Rx         0061  8  04 01 12 01 00 00 00 00 
   380)      3320.7  Rx         0080  8  01 00 2B 01 00 00 00 00 
   381)      3323.3  Rx         0061  8  04 01 2B 01 00 00 00 00 
   382)      3326.5  Rx         0080  8  03 00 12 01 00 00 00 00 
   383)      3328.2  Rx         0061  8  04 01 12 01 00 00 00 00 
   384)      3329.9  Rx         0092  8  09 00 03 00 00 00 00 00 
   385)      3330.7  Rx         0092  8  09 00 03 00 00 00 00 00 
   386)      3335.9  Rx         0080  8  03 00 2B 01 00 00 00 00 
   387)      3337.9  Rx         0061  8  04 01 2B 01 00 00 00 00 
   388)      3346.0  Rx         0701  8  2B 09 30 01 01 00 00 00 
   389)      3346.5  Rx         0681  8  60 09 30 01 01 00 00 00 
   390)      3347.0  Rx         0081  8  00 00 00 64 10 05 00 00 
   391)      3347.5  Rx         0701  8  2B 0B 40 03 01 00 00 00 
   392)      3348.2  Rx         0681  8  60 0B 40 03 01 00 00 00 
   393)      3350.2  Rx         0701  8  2B 0A 30 01 01 00 00 00 
   394)      3350.8  Rx         0681  8  60 0A 30 01 01 00 00 00 
   395)      3353.6  Rx         0060  8  80 00 00 00 9F 00 00 00 
   396)      3355.0  Rx         0701  8  2B 0C 40 03 01 00 00 00 
   397)      3355.7  Rx         0681  8  60 0C 40 03 01 00 00 00 
   398)      3370.0  Rx         0081  8  00 00 00 64 10 05 00 00 
   399)      3379.1  Rx         0092  8  01 00 03 00 00 00 00 00 
   400)      3385.1  Rx         0081  8  00 00 00 64 10 05 00 00 
   401)      3405.0  Rx         0081  8  00 00 00 64 10 05 00 00 
   402)      3425.0  Rx         0081  8  00 00 00 64 10 05 00 00 
   403)      3433.8  Rx         0060  8  88 00 00 00 14 00 00 00 
   404)      3445.0  Rx         0081  8  00 00 00 64 10 05 00 00 
   405)      3465.9  Rx         0081  8  00 00 00 64 10 05 00 00 
   406)      3485.0  Rx         0081  8  00 00 00 64 10 05 00 00 
   407)      3505.1  Rx         0081  8  00 00 00 64 10 05 00 00 
   408)      3513.7  Rx         0060  8  90 00 00 00 15 00 00 00 
   409)      3525.1  Rx         0081  8  00 00 00 64 10 05 00 00 
   410)      3545.1  Rx         0081  8  00 00 00 64 10 05 00 00 
   411)      3565.9  Rx         0081  8  00 00 00 64 10 05 00 00 
   412)      3574.8  Rx         0070  8  2D 04 16 09 06 10 00 00 
   413)      3575.9  Rx         07A0  8  64 0A 0D 00 00 00 00 00 
   414)      3590.1  Rx         0081  8  00 00 00 64 10 05 00 00 
   415)      3593.9  Rx         0060  8  98 00 00 00 32 00 00 00 
   416)      3605.1  Rx         0081  8  00 00 00 64 10 05 00 00 
   417)      3625.1  Rx         0081  8  00 00 00 64 10 05 00 00 
   418)      3645.1  Rx         0081  8  00 00 00 64 10 05 00 00 
   419)      3666.2  Rx         0081  8  00 00 00 64 10 05 00 00 
   420)      3674.6  Rx         0060  8  A0 00 00 00 33 00 00 00 
   421)      3689.1  Rx         0081  8  00 00 00 64 10 05 00 00 
   422)      3705.2  Rx         0081  8  00 00 00 64 10 05 00 00 
   423)      3725.2  Rx         0081  8  00 00 00 64 10 05 00 00 
   424)      3745.1  Rx         0081  8  00 00 00 64 10 05 00 00 
   425)      3754.6  Rx         0060  8  A8 00 00 00 28 00 00 00 
   426)      3766.0  Rx         0081  8  00 00 00 64 10 05 00 00 
   427)      3785.2  Rx         0081  8  00 00 00 64 10 05 00 00 
   428)      3805.2  Rx         0081  8  00 00 00 64 10 05 00 00 
   429)      3825.2  Rx         0081  8  00 00 00 64 10 05 00 00 
   430)      3834.8  Rx         0060  8  B0 00 00 00 6D 00 00 00 
   431)      3845.6  Rx         0081  8  00 00 00 64 10 05 00 00 
   432)      3866.2  Rx         0081  8  00 00 00 64 10 05 00 00 
   433)      3876.7  Rx         07C2  0  
   434)      3877.6  Rx         07C2  1  08 
   435)      3885.8  Rx         0081  8  00 00 00 64 10 05 00 00 
   436)      3909.3  Rx         0081  8  00 00 00 64 10 05 00 00 
   437)      3914.5  Rx         0060  8  B8 00 00 00 6E 00 00 00 
   438)      3925.3  Rx         0081  8  00 00 00 64 10 05 00 00 
   439)      3945.3  Rx         0081  8  00 00 00 64 10 05 00 00 
   440)      3966.3  Rx         0081  8  00 00 00 64 10 05 00 00 
   441)      3985.4  Rx         0081  8  00 00 00 64 10 05 00 00 
   442)      3994.7  Rx         0060  8  C0 00 00 00 6F 00 00 00 
   443)      4005.4  Rx         0081  8  00 00 00 64 10 05 00 00 
   444)      4025.4  Rx         0081  8  00 00 00 64 10 05 00 00 
   445)      4045.4  Rx         0081  8  00 00 00 64 10 05 00 00 
   446)      4066.3  Rx         0081  8  00 00 00 64 10 05 00 00 
   447)      4075.7  Rx         0060  8  C8 00 00 00 C0 00 00 00 
   448)      4076.4  Rx         0070  8  2D 04 16 09 06 10 00 00 
   449)      4077.6  Rx         07A0  8  64 0A 0D 00 00 00 00 00 
   450)      4088.1  Rx         0081  8  00 00 00 64 10 05 00 00 
   451)      4105.5  Rx         0081  8  00 00 00 64 10 05 00 00 
   452)      4129.4  Rx         0081  8  00 00 00 64 10 05 00 00 
   453)      4145.4  Rx         0081  8  00 00 00 64 10 05 00 00 
   454)      4155.2  Rx         0060  8  D0 00 00 00 D1 00 00 00 
   455)      4166.4  Rx         0081  8  00 00 00 64 10 05 00 00 
   456)      4185.5  Rx         0081  8  00 00 00 64 10 05 00 00 
   457)      4205.5  Rx         0081  8  00 00 00 64 10 05 00 00 
   458)      4225.5  Rx         0081  8  00 00 00 64 10 05 00 00 
   459)      4235.4  Rx         0060  8  D8 00 00 00 D2 00 00 00 
   460)      4245.6  Rx         0081  8  00 00 00 64 10 05 00 00 
   461)      4266.4  Rx         0081  8  00 00 00 64 10 05 00 00 
   462)      4285.5  Rx         0081  8  00 00 00 64 10 05 00 00 
   463)      4305.5  Rx         0081  8  00 00 00 64 10 05 00 00 
   464)      4315.3  Rx         0060  8  E0 00 00 00 D7 00 00 00 
   465)      4326.1  Rx         0081  8  00 00 00 64 10 05 00 00 
   466)      4349.5  Rx         0081  8  00 00 00 64 10 05 00 00 
   467)      4366.5  Rx         0081  8  00 00 00 64 10 05 00 00 
   468)      4385.6  Rx         0081  8  00 00 00 64 10 05 00 00 
   469)      4395.3  Rx         0060  8  E8 00 00 00 9C 00 00 00 
   470)      4405.6  Rx         0081  8  00 00 00 64 10 05 00 00 
   471)      4425.6  Rx         0081  8  00 00 00 64 10 05 00 00 
   472)      4445.6  Rx         0081  8  00 00 00 64 10 05 00 00 
   473)      4466.5  Rx         0081  8  00 00 00 64 10 05 00 00 
   474)      4476.2  Rx         0060  8  F0 00 00 00 9D 00 00 00 
   475)      4486.3  Rx         0081  8  00 00 00 64 10 05 00 00 
   476)      4505.6  Rx         0081  8  00 00 00 64 10 05 00 00 
   477)      4525.7  Rx         0081  8  00 00 00 64 10 05 00 00 
   478)      4545.7  Rx         0081  8  00 00 00 64 10 05 00 00 
   479)      4556.1  Rx         0060  8  F8 00 00 00 AA 00 00 00 
   480)      4571.8  Rx         0081  8  00 00 00 64 10 05 00 00 
   481)      4576.9  Rx         0070  8  2E 04 16 09 06 10 00 00 
   482)      4578.1  Rx         07A0  8  64 0A 0D 00 00 00 00 00 
   483)      4586.8  Rx         0081  8  00 00 00 64 10 05 00 00 
   484)      4605.7  Rx         0081  8  00 00 00 64 10 05 00 00 
   485)      4625.7  Rx         0081  8  00 00 00 64 10 05 00 00 
   486)      4636.3  Rx         0060  8  00 01 00 00 AB 00 00 00 
   487)      4646.5  Rx         0081  8  00 00 00 64 10 05 00 00 
   488)      4670.8  Rx         0081  8  00 00 00 64 10 05 00 00 
   489)      4678.2  Rx         07C2  0  
   490)      4686.2  Rx         0081  8  00 00 00 64 10 05 00 00 
   491)      4686.5  Rx         07C2  1  88 
   492)      4705.7  Rx         0081  8  00 00 00 64 10 05 00 00 
   493)      4716.1  Rx         0060  8  08 01 00 00 20 00 00 00 
   494)      4726.3  Rx         0081  8  00 00 00 64 10 05 00 00 
   495)      4745.8  Rx         0081  8  00 00 00 64 10 05 00 00 
   496)      4766.7  Rx         0081  8  00 00 00 64 10 05 00 00 
   497)      4785.8  Rx         0081  8  00 00 00 64 10 05 00 00 
   498)      4796.3  Rx         0060  8  10 01 00 00 25 00 00 00 
   499)      4807.1  Rx         0081  8  00 00 00 64 10 05 00 00 
   500)      4825.9  Rx         0081  8  00 00 00 64 10 05 00 00 
   501)      4845.8  Rx         0081  8  00 00 00 64 10 05 00 00 
   502)      4866.8  Rx         0081  8  00 00 00 64 10 05 00 00 
   503)      4877.0  Rx         0060  8  18 01 00 00 26 00 00 00 
   504)      4891.2  Rx         0081  8  00 00 00 64 10 05 00 00 
   505)      4905.9  Rx         0081  8  00 00 00 64 10 05 00 00 
   506)      4925.9  Rx         0081  8  00 00 00 64 10 05 00 00 
   507)      4945.9  Rx         0081  8  00 00 00 64 10 05 00 00 
   508)      4956.8  Rx         0060  8  20 01 00 00 77 00 00 00 
   509)      4968.0  Rx         0081  8  00 00 00 64 10 05 00 00 
   510)      4985.9  Rx         0081  8  00 00 00 64 10 05 00 00 
   511)      5005.9  Rx         0081  8  00 00 00 64 10 05 00 00 
   512)      5025.9  Rx         0081  8  00 00 00 64 10 05 00 00 
   513)      5037.0  Rx         0060  8  28 01 00 00 58 00 00 00 
   514)      5047.9  Rx         0081  8  00 00 00 64 10 05 00 00 
   515)      5066.8  Rx         0081  8  00 00 00 64 10 05 00 00 
   516)      5078.2  Rx         0070  8  2E 04 16 09 06 10 00 00 
   517)      5079.3  Rx         07A0  8  64 0A 0D 00 00 00 00 00 
   518)      5086.8  Rx         0081  8  00 00 00 64 10 05 00 00 
   519)      5110.0  Rx         0081  8  00 00 00 64 10 05 00 00 
   520)      5116.9  Rx         0060  8  30 01 00 00 59 00 00 00 
   521)      5127.2  Rx         0081  8  00 00 00 64 10 05 00 00 
   522)      5146.0  Rx         0081  8  00 00 00 64 10 05 00 00 
   523)      5166.9  Rx         0081  8  00 00 00 64 10 05 00 00 
   524)      5186.0  Rx         0081  8  00 00 00 64 10 05 00 00 
   525)      5197.1  Rx         0060  8  38 01 00 00 5A 00 00 00 
   526)      5207.3  Rx         0081  8  00 00 00 64 10 05 00 00 
   527)      5226.0  Rx         0081  8  00 00 00 64 10 05 00 00 
   528)      5246.1  Rx         0081  8  00 00 00 64 10 05 00 00 
   529)      5266.9  Rx         0081  8  00 00 00 64 10 05 00 00 
   530)      5277.8  Rx         0060  8  40 01 00 00 5F 00 00 00 
   531)      5286.9  Rx         0081  8  00 00 00 64 10 05 00 00 
   532)      5306.1  Rx         0081  8  00 00 00 64 10 05 00 00 
   533)      5330.1  Rx         0081  8  00 00 00 64 10 05 00 00 
   534)      5346.1  Rx         0081  8  00 00 00 64 10 05 00 00 
   535)      5357.6  Rx         0060  8  48 01 00 00 C4 00 00 00 
   536)      5367.8  Rx         0081  8  00 00 00 64 10 05 00 00 
   537)      5386.1  Rx         0081  8  00 00 00 64 10 05 00 00 
   538)      5406.1  Rx         0081  8  00 00 00 64 10 05 00 00 
   539)      5426.1  Rx         0081  8  00 00 00 64 10 05 00 00 
   540)      5437.8  Rx         0060  8  50 01 00 00 C5 00 00 00 
   541)      5447.0  Rx         0081  8  00 00 00 64 10 05 00 00 
   542)      5467.0  Rx         0081  8  00 00 00 64 10 05 00 00 
   543)      5479.8  Rx         07C2  0  
   544)      5486.3  Rx         0081  8  00 00 00 64 10 05 00 00 
   545)      5486.9  Rx         07C2  1  08 
   546)      5506.2  Rx         0081  8  00 00 00 64 10 05 00 00 
   547)      5517.7  Rx         0060  8  58 01 00 00 A2 00 00 00 
   548)      5528.5  Rx         0081  8  00 00 00 64 10 05 00 00 
   549)      5550.2  Rx         0081  8  00 00 00 64 10 05 00 00 
   550)      5567.1  Rx         0081  8  00 00 00 64 10 05 00 00 
   551)      5578.7  Rx         0070  8  2F 04 16 09 06 10 00 00 
   552)      5579.8  Rx         07A0  8  64 0A 0D 00 00 00 00 00 
   553)      5587.1  Rx         0081  8  00 00 00 64 10 05 00 00 
   554)      5597.8  Rx         0060  8  60 01 00 00 A3 00 00 00 
   555)      5607.0  Rx         0081  8  00 00 00 64 10 05 00 00 
   556)      5626.3  Rx         0081  8  00 00 00 64 10 05 00 00 
   557)      5646.3  Rx         0081  8  00 00 00 64 10 05 00 00 
   558)      5667.4  Rx         0081  8  00 00 00 64 10 05 00 00 
   559)      5678.6  Rx         0060  8  68 01 00 00 A8 00 00 00 
   560)      5687.1  Rx         0081  8  00 00 00 64 10 05 00 00 
   561)      5706.3  Rx         0081  8  00 00 00 64 10 05 00 00 
   562)      5726.3  Rx         0081  8  00 00 00 64 10 05 00 00 
   563)      5746.3  Rx         0081  8  00 00 00 64 10 05 00 00 
   564)      5758.5  Rx         0060  8  70 01 00 00 BD 00 00 00 
   565)      5768.0  Rx         0081  8  00 00 00 64 10 05 00 00 
   566)      5786.4  Rx         0081  8  00 00 00 64 10 05 00 00 
   567)      5806.4  Rx         0081  8  00 00 00 64 10 05 00 00 
   568)      5826.4  Rx         0081  8  00 00 00 64 10 05 00 00 
   569)      5838.7  Rx         0060  8  78 01 00 00 BE 00 00 00 
   570)      5847.2  Rx         0081  8  00 00 00 64 10 05 00 00 
   571)      5871.3  Rx         0081  8  00 00 00 64 10 05 00 00 
   572)      5886.4  Rx         0081  8  00 00 00 64 10 05 00 00 
   573)      5906.5  Rx         0081  8  00 00 00 64 10 05 00 00 
   574)      5918.5  Rx         0060  8  80 01 00 00 BF 00 00 00 
   575)      5927.2  Rx         0081  8  00 00 00 64 10 05 00 00 
   576)      5946.5  Rx         0081  8  00 00 00 64 10 05 00 00 
   577)      5967.3  Rx         0081  8  00 00 00 64 10 05 00 00 
   578)      5986.4  Rx         0081  8  00 00 00 64 10 05 00 00 
   579)      5998.6  Rx         0060  8  88 01 00 00 10 00 00 00 
   580)      6007.3  Rx         0081  8  00 00 00 64 10 05 00 00 
   581)      6026.5  Rx         0081  8  00 00 00 64 10 05 00 00 
   582)      6046.5  Rx         0081  8  00 00 00 64 10 05 00 00 
   583)      6067.5  Rx         0081  8  00 00 00 64 10 05 00 00 
   584)      6079.6  Rx         0060  8  90 01 00 00 51 00 00 00 
   585)      6080.4  Rx         0070  8  2F 04 16 09 06 10 00 00 
   586)      6081.5  Rx         07A0  8  64 0A 0D 00 00 00 00 00 
   587)      6090.8  Rx         0081  8  00 00 00 64 10 05 00 00 
   588)      6106.5  Rx         0081  8  00 00 00 64 10 05 00 00 
   589)      6126.6  Rx         0081  8  00 00 00 64 10 05 00 00 
   590)      6146.6  Rx         0081  8  00 00 00 64 10 05 00 00 
   591)      6159.2  Rx         0060  8  98 01 00 00 42 00 00 00 
   592)      6168.2  Rx         0081  8  00 00 00 64 10 05 00 00 
   593)      6186.6  Rx         0081  8  00 00 00 64 10 05 00 00 
   594)      6206.5  Rx         0081  8  00 00 00 64 10 05 00 00 
   595)      6226.6  Rx         0081  8  00 00 00 64 10 05 00 00 
   596)      6239.4  Rx         0060  8  A0 01 00 00 47 00 00 00 
   597)      6247.4  Rx         0081  8  00 00 00 64 10 05 00 00 
   598)      6267.5  Rx         0081  8  00 00 00 64 10 05 00 00 
   599)      6281.4  Rx         07C2  0  
   600)      6286.7  Rx         0081  8  00 00 00 64 10 05 00 00 
   601)      6287.3  Rx         07C2  1  88 
   602)      6310.6  Rx         0081  8  00 00 00 64 10 05 00 00 
   603)      6319.2  Rx         0060  8  A8 01 00 00 4C 00 00 00 
   604)      6327.4  Rx         0081  8  00 00 00 64 10 05 00 00 
   605)      6346.6  Rx         0081  8  00 00 00 64 10 05 00 00 
   606)      6367.6  Rx         0081  8  00 00 00 64 10 05 00 00 
   607)      6386.7  Rx         0081  8  00 00 00 64 10 05 00 00 
   608)      6399.5  Rx         0060  8  B0 01 00 00 4D 00 00 00 
   609)      6407.5  Rx         0081  8  00 00 00 64 10 05 00 00 
   610)      6426.7  Rx         0081  8  00 00 00 64 10 05 00 00 
   611)      6446.7  Rx         0081  8  00 00 00 64 10 05 00 00 
   612)      6467.6  Rx         0081  8  00 00 00 64 10 05 00 00 
   613)      6480.3  Rx         0060  8  B8 01 00 00 6A 00 00 00 
   614)      6486.9  Rx         0081  8  00 00 00 64 10 05 00 00 
   615)      6506.8  Rx         0081  8  00 00 00 64 10 05 00 00 
   616)      6530.8  Rx         0081  8  00 00 00 64 10 05 00 00 
   617)      6546.8  Rx         0081  8  00 00 00 64 10 05 00 00 
   618)      6560.1  Rx         0060  8  C0 01 00 00 7B 00 00 00 
   619)      6568.4  Rx         0081  8  00 00 00 64 10 05 00 00 
   620)      6580.9  Rx         0070  8  30 04 16 09 06 10 00 00 
   621)      6582.0  Rx         07A0  8  64 0A 0D 00 00 00 00 00 
   622)      6587.0  Rx         0081  8  00 00 00 64 10 05 00 00 
   623)      6606.8  Rx         0081  8  00 00 00 64 10 05 00 00 
   624)      6626.8  Rx         0081  8  00 00 00 64 10 05 00 00 
   625)      6640.3  Rx         0060  8  C8 01 00 00 B0 00 00 00 
   626)      6646.9  Rx         0081  8  00 00 00 64 10 05 00 00 
   627)      6668.0  Rx         0081  8  00 00 00 64 10 05 00 00 
   628)      6686.8  Rx         0081  8  00 00 00 64 10 05 00 00 
   629)      6706.9  Rx         0081  8  00 00 00 64 10 05 00 00 
   630)      6720.1  Rx         0060  8  D0 01 00 00 B5 00 00 00 
   631)      6727.0  Rx         0081  8  00 00 00 64 10 05 00 00 
   632)      6746.9  Rx         0081  8  00 00 00 64 10 05 00 00 
   633)      6767.8  Rx         0081  8  00 00 00 64 10 05 00 00 
   634)      6786.9  Rx         0081  8  00 00 00 64 10 05 00 00 
   635)      6800.3  Rx         0060  8  D8 01 00 00 B6 00 00 00 
   636)      6807.0  Rx         0081  8  00 00 00 64 10 05 00 00 
   637)      6827.0  Rx         0081  8  00 00 00 64 10 05 00 00 
   638)      6851.0  Rx         0081  8  00 00 00 64 10 05 00 00 
   639)      6867.9  Rx         0081  8  00 00 00 64 10 05 00 00 
   640)      6881.0  Rx         0060  8  E0 01 00 00 B7 00 00 00 
   641)      6887.1  Rx         0081  8  00 00 00 64 10 05 00 00 
   642)      6907.0  Rx         0081  8  00 00 00 64 10 05 00 00 
   643)      6927.0  Rx         0081  8  00 00 00 64 10 05 00 00 
   644)      6947.0  Rx         0081  8  00 00 00 64 10 05 00 00 
   645)      6960.8  Rx         0060  8  E8 01 00 00 88 00 00 00 
   646)      6968.7  Rx         0081  8  00 00 00 64 10 05 00 00 
   647)      6987.0  Rx         0081  8  00 00 00 64 10 05 00 00 
   648)      7007.0  Rx         0081  8  00 00 00 64 10 05 00 00 
   649)      7027.1  Rx         0081  8  00 00 00 64 10 05 00 00 
   650)      7041.0  Rx         0060  8  F0 01 00 00 89 00 00 00 
   651)      7047.2  Rx         0081  8  00 00 00 64 10 05 00 00 
   652)      7071.9  Rx         0081  8  00 00 00 64 10 05 00 00 
   653)      7082.2  Rx         0070  8  30 04 16 09 06 10 00 00 
   654)      7083.4  Rx         07A0  8  64 0A 0D 00 00 00 00 00 
   655)      7083.7  Rx         07C2  0  
   656)      7087.4  Rx         0081  8  00 00 00 64 10 05 00 00 
   657)      7089.7  Rx         07C2  1  08 
   658)      7107.1  Rx         0081  8  00 00 00 64 10 05 00 00 
   659)      7120.9  Rx         0060  8  F8 01 00 00 8A 00 00 00 
   660)      7127.2  Rx         0081  8  00 00 00 64 10 05 00 00 
   661)      7147.1  Rx         0081  8  00 00 00 64 10 05 00 00 
   662)      7168.1  Rx         0081  8  00 00 00 64 10 05 00 00 
   663)      7187.1  Rx         0081  8  00 00 00 64 10 05 00 00 
   664)      7201.1  Rx         0060  8  00 02 00 00 CF 00 00 00 
   665)      7207.3  Rx         0081  8  00 00 00 64 10 05 00 00 
   666)      7227.2  Rx         0081  8  00 00 00 64 10 05 00 00 
   667)      7247.2  Rx         0081  8  00 00 00 64 10 05 00 00 
   668)      7268.1  Rx         0081  8  00 00 00 64 10 05 00 00 
   669)      7281.8  Rx         0060  8  08 02 00 00 44 00 00 00 
   670)      7291.3  Rx         0081  8  00 00 00 64 10 05 00 00 
   671)      7307.2  Rx         0081  8  00 00 00 64 10 05 00 00 
   672)      7327.3  Rx         0081  8  00 00 00 64 10 05 00 00 
   673)      7347.2  Rx         0081  8  00 00 00 64 10 05 00 00 
   674)      7361.7  Rx         0060  8  10 02 00 00 55 00 00 00 
   675)      7368.3  Rx         0081  8  00 00 00 64 10 05 00 00 
   676)      7387.2  Rx         0081  8  00 00 00 64 10 05 00 00 
   677)      7407.2  Rx         0081  8  00 00 00 64 10 05 00 00 
   678)      7427.3  Rx         0081  8  00 00 00 64 10 05 00 00 
   679)      7441.9  Rx         0060  8  18 02 00 00 72 00 00 00 
   680)      7447.4  Rx         0081  8  00 00 00 64 10 05 00 00 
   681)      7468.1  Rx         0081  8  00 00 00 64 10 05 00 00 
   682)      7487.3  Rx         0081  8  00 00 00 64 10 05 00 00 
   683)      7511.3  Rx         0081  8  00 00 00 64 10 05 00 00 
   684)      7521.8  Rx         0060  8  20 02 00 00 73 00 00 00 
   685)      7527.4  Rx         0081  8  00 00 00 64 10 05 00 00 
   686)      7547.4  Rx         0081  8  00 00 00 64 10 05 00 00 
   687)      7568.2  Rx         0081  8  00 00 00 64 10 05 00 00 
   688)      7582.8  Rx         0070  8  31 04 16 09 06 10 00 00 
   689)      7583.8  Rx         07A0  8  64 0A 0D 00 00 00 00 00 
   690)      7587.5  Rx         0081  8  00 00 00 64 10 05 00 00 
   691)      7601.9  Rx         0060  8  28 02 00 00 78 00 00 00 
   692)      7607.5  Rx         0081  8  00 00 00 64 10 05 00 00 
   693)      7627.3  Rx         0081  8  00 00 00 64 10 05 00 00 
   694)      7647.4  Rx         0081  8  00 00 00 64 10 05 00 00 
   695)      7668.5  Rx         0081  8  00 00 00 64 10 05 00 00 
   696)      7682.6  Rx         0060  8  30 02 00 00 7D 00 00 00 
   697)      7687.5  Rx         0081  8  00 00 00 64 10 05 00 00 
   698)      7707.4  Rx         0081  8  00 00 00 64 10 05 00 00 
   699)      7727.4  Rx         0081  8  00 00 00 64 10 05 00 00 
   700)      7747.4  Rx         0081  8  00 00 00 64 10 05 00 00 
   701)      7762.5  Rx         0060  8  38 02 00 00 2E 00 00 00 
   702)      7768.4  Rx         0081  8  00 00 00 64 10 05 00 00 
   703)      7787.4  Rx         0081  8  00 00 00 64 10 05 00 00 
   704)      7807.4  Rx         0081  8  00 00 00 64 10 05 00 00 
   705)      7831.4  Rx         0081  8  00 00 00 64 10 05 00 00 
   706)      7842.7  Rx         0060  8  40 02 00 00 2F 00 00 00 
   707)      7847.5  Rx         0081  8  00 00 00 64 10 05 00 00 
   708)      7868.3  Rx         0081  8  00 00 00 64 10 05 00 00 
   709)      7884.6  Rx         07C2  0  
   710)      7887.6  Rx         0081  8  00 00 00 64 10 05 00 00 
   711)      7888.1  Rx         07C2  1  88 
   712)      7907.5  Rx         0081  8  00 00 00 64 10 05 00 00 
   713)      7922.5  Rx         0060  8  48 02 00 00 80 00 00 00 
   714)      7927.6  Rx         0081  8  00 00 00 64 10 05 00 00 
   715)      7947.5  Rx         0081  8  00 00 00 64 10 05 00 00 
   716)      7960.9  Rx         0062  8  80 02 00 00 00 00 00 00 
   717)      7964.4  Rx         0080  8  85 00 00 00 00 00 00 00 
   718)      7965.4  Rx         0080  8  03 00 07 41 00 00 00 00 
   719)      7966.4  Rx         0061  8  04 01 07 41 00 00 00 00 
   720)      7969.3  Rx         0081  8  00 00 00 64 10 05 00 00 
   721)      7977.2  Rx         0080  8  03 00 16 01 00 00 00 00 
   722)      7978.1  Rx         0061  8  04 01 16 01 00 00 00 00 
   723)      7979.1  Rx         0061  8  04 01 16 01 00 00 00 00 
